vcc	V(n003)	Ic(Q1)
-5.000000000000000e+000	-4.949343e+000	-2.628143e-005
-4.950000000000000e+000	-4.919218e+000	-1.716955e-005
-4.900000000000000e+000	-4.884743e+000	-6.883046e-006
-4.850000000000001e+000	-4.847371e+000	4.185919e-006
-4.800000000000001e+000	-4.808057e+000	1.579013e-005
-4.750000000000001e+000	-4.767277e+000	2.777349e-005
-4.700000000000001e+000	-4.725472e+000	4.003415e-005
-4.650000000000001e+000	-4.682901e+000	5.250307e-005
-4.600000000000001e+000	-4.639737e+000	6.513162e-005
-4.550000000000002e+000	-4.596111e+000	7.788439e-005
-4.500000000000002e+000	-4.552119e+000	9.073474e-005
-4.450000000000002e+000	-4.507838e+000	1.036620e-004
-4.400000000000002e+000	-4.463328e+000	1.166497e-004
-4.350000000000002e+000	-4.418639e+000	1.296845e-004
-4.300000000000003e+000	-4.373811e+000	1.427550e-004
-4.250000000000003e+000	-4.328880e+000	1.558516e-004
-4.200000000000003e+000	-4.283878e+000	1.689654e-004
-4.150000000000003e+000	-4.238832e+000	1.820887e-004
-4.100000000000003e+000	-4.193770e+000	1.952141e-004
-4.050000000000003e+000	-4.148718e+000	2.083343e-004
-4.000000000000004e+000	-4.103700e+000	2.214423e-004
-3.950000000000004e+000	-4.058742e+000	2.345307e-004
-3.900000000000004e+000	-4.013872e+000	2.475918e-004
-3.850000000000004e+000	-3.969118e+000	2.606173e-004
-3.800000000000004e+000	-3.924514e+000	2.735979e-004
-3.750000000000004e+000	-3.880095e+000	2.865231e-004
-3.700000000000005e+000	-3.835905e+000	2.993808e-004
-3.650000000000005e+000	-3.791992e+000	3.121565e-004
-3.600000000000005e+000	-3.748417e+000	3.248327e-004
-3.550000000000005e+000	-3.705256e+000	3.373879e-004
-3.500000000000005e+000	-3.662600e+000	3.497949e-004
-3.450000000000006e+000	-3.620571e+000	3.620186e-004
-3.400000000000006e+000	-3.579328e+000	3.740129e-004
-3.350000000000006e+000	-3.539085e+000	3.857155e-004
-3.300000000000006e+000	-3.500138e+000	3.970401e-004
-3.250000000000006e+000	-3.462905e+000	4.078645e-004
-3.200000000000006e+000	-3.427990e+000	4.180122e-004
-3.150000000000007e+000	-3.396267e+000	4.272285e-004
-3.100000000000007e+000	-3.368947e+000	4.351610e-004
-3.050000000000007e+000	-3.347469e+000	4.413960e-004
-3.000000000000007e+000	-3.332862e+000	4.456483e-004
-2.950000000000007e+000	-3.324623e+000	4.480631e-004
-2.900000000000008e+000	-3.320705e+000	4.492144e-004
-2.850000000000008e+000	-3.319037e+000	4.497017e-004
-2.800000000000008e+000	-3.318368e+000	4.498964e-004
-2.750000000000008e+000	-3.318104e+000	4.499732e-004
-2.700000000000008e+000	-3.317997e+000	4.500042e-004
-2.650000000000008e+000	-3.317951e+000	4.500177e-004
-2.600000000000009e+000	-3.317927e+000	4.500246e-004
-2.550000000000009e+000	-3.317912e+000	4.500290e-004
-2.500000000000009e+000	-3.317900e+000	4.500325e-004
-2.450000000000009e+000	-3.317889e+000	4.500355e-004
-2.400000000000009e+000	-3.317879e+000	4.500385e-004
-2.350000000000009e+000	-3.317869e+000	4.500414e-004
-2.300000000000010e+000	-3.317859e+000	4.500442e-004
-2.250000000000010e+000	-3.317849e+000	4.500471e-004
-2.200000000000010e+000	-3.317839e+000	4.500499e-004
-2.150000000000010e+000	-3.317829e+000	4.500528e-004
-2.100000000000010e+000	-3.317819e+000	4.500557e-004
-2.050000000000011e+000	-3.317809e+000	4.500585e-004
-2.000000000000011e+000	-3.317799e+000	4.500614e-004
-1.950000000000011e+000	-3.317789e+000	4.500642e-004
-1.900000000000011e+000	-3.317779e+000	4.500671e-004
-1.850000000000011e+000	-3.317769e+000	4.500699e-004
-1.800000000000011e+000	-3.317759e+000	4.500728e-004
-1.750000000000010e+000	-3.317749e+000	4.500756e-004
-1.700000000000010e+000	-3.317739e+000	4.500785e-004
-1.650000000000010e+000	-3.317729e+000	4.500813e-004
-1.600000000000010e+000	-3.317719e+000	4.500842e-004
-1.550000000000010e+000	-3.317709e+000	4.500870e-004
-1.500000000000010e+000	-3.317699e+000	4.500899e-004
-1.450000000000010e+000	-3.317689e+000	4.500927e-004
-1.400000000000010e+000	-3.317679e+000	4.500956e-004
-1.350000000000010e+000	-3.317669e+000	4.500985e-004
-1.300000000000010e+000	-3.317659e+000	4.501013e-004
-1.250000000000010e+000	-3.317650e+000	4.501042e-004
-1.200000000000010e+000	-3.317640e+000	4.501070e-004
-1.150000000000010e+000	-3.317630e+000	4.501099e-004
-1.100000000000010e+000	-3.317620e+000	4.501127e-004
-1.050000000000010e+000	-3.317610e+000	4.501155e-004
-1.000000000000010e+000	-3.317600e+000	4.501184e-004
-9.500000000000097e-001	-3.317590e+000	4.501212e-004
-9.000000000000097e-001	-3.317580e+000	4.501241e-004
-8.500000000000096e-001	-3.317570e+000	4.501269e-004
-8.000000000000096e-001	-3.317560e+000	4.501298e-004
-7.500000000000096e-001	-3.317550e+000	4.501326e-004
-7.000000000000095e-001	-3.317540e+000	4.501355e-004
-6.500000000000095e-001	-3.317530e+000	4.501384e-004
-6.000000000000094e-001	-3.317520e+000	4.501412e-004
-5.500000000000094e-001	-3.317510e+000	4.501440e-004
-5.000000000000093e-001	-3.317500e+000	4.501469e-004
-4.500000000000093e-001	-3.317490e+000	4.501497e-004
-4.000000000000094e-001	-3.317481e+000	4.501526e-004
-3.500000000000094e-001	-3.317471e+000	4.501554e-004
-3.000000000000094e-001	-3.317461e+000	4.501583e-004
-2.500000000000094e-001	-3.317451e+000	4.501611e-004
-2.000000000000094e-001	-3.317441e+000	4.501640e-004
-1.500000000000094e-001	-3.317431e+000	4.501668e-004
-1.000000000000094e-001	-3.317421e+000	4.501697e-004
-5.000000000000940e-002	-3.317411e+000	4.501725e-004
-9.395262345890387e-015	-3.317401e+000	4.501753e-004
4.999999999999061e-002	-3.317391e+000	4.501782e-004
9.999999999999061e-002	-3.317381e+000	4.501810e-004
1.499999999999906e-001	-3.317371e+000	4.501839e-004
1.999999999999906e-001	-3.317361e+000	4.501867e-004
2.499999999999906e-001	-3.317351e+000	4.501896e-004
2.999999999999906e-001	-3.317342e+000	4.501924e-004
3.499999999999906e-001	-3.317332e+000	4.501952e-004
3.999999999999906e-001	-3.317322e+000	4.501981e-004
4.499999999999906e-001	-3.317312e+000	4.502009e-004
4.999999999999906e-001	-3.317302e+000	4.502038e-004
5.499999999999906e-001	-3.317292e+000	4.502066e-004
5.999999999999907e-001	-3.317282e+000	4.502095e-004
6.499999999999907e-001	-3.317272e+000	4.502123e-004
6.999999999999907e-001	-3.317262e+000	4.502151e-004
7.499999999999908e-001	-3.317252e+000	4.502180e-004
7.999999999999908e-001	-3.317242e+000	4.502208e-004
8.499999999999909e-001	-3.317232e+000	4.502237e-004
8.999999999999909e-001	-3.317222e+000	4.502265e-004
9.499999999999910e-001	-3.317213e+000	4.502294e-004
9.999999999999910e-001	-3.317203e+000	4.502322e-004
1.049999999999991e+000	-3.317193e+000	4.502350e-004
1.099999999999991e+000	-3.317183e+000	4.502379e-004
1.149999999999991e+000	-3.317173e+000	4.502407e-004
1.199999999999991e+000	-3.317163e+000	4.502435e-004
1.249999999999991e+000	-3.317153e+000	4.502464e-004
1.299999999999991e+000	-3.317143e+000	4.502492e-004
1.349999999999991e+000	-3.317133e+000	4.502521e-004
1.399999999999991e+000	-3.317123e+000	4.502549e-004
1.449999999999991e+000	-3.317113e+000	4.502577e-004
1.499999999999991e+000	-3.317104e+000	4.502606e-004
1.549999999999991e+000	-3.317094e+000	4.502634e-004
1.599999999999991e+000	-3.317084e+000	4.502662e-004
1.649999999999992e+000	-3.317074e+000	4.502691e-004
1.699999999999992e+000	-3.317064e+000	4.502719e-004
1.749999999999992e+000	-3.317054e+000	4.502748e-004
1.799999999999992e+000	-3.317044e+000	4.502776e-004
1.849999999999992e+000	-3.317034e+000	4.502804e-004
1.899999999999992e+000	-3.317024e+000	4.502833e-004
1.949999999999992e+000	-3.317014e+000	4.502861e-004
1.999999999999992e+000	-3.317005e+000	4.502889e-004
2.049999999999992e+000	-3.316995e+000	4.502918e-004
2.099999999999992e+000	-3.316985e+000	4.502946e-004
2.149999999999992e+000	-3.316975e+000	4.502974e-004
2.199999999999991e+000	-3.316965e+000	4.503003e-004
2.249999999999991e+000	-3.316955e+000	4.503031e-004
2.299999999999991e+000	-3.316945e+000	4.503059e-004
2.349999999999991e+000	-3.316935e+000	4.503088e-004
2.399999999999991e+000	-3.316926e+000	4.503116e-004
2.449999999999990e+000	-3.316916e+000	4.503144e-004
2.499999999999990e+000	-3.316906e+000	4.503173e-004
2.549999999999990e+000	-3.316896e+000	4.503201e-004
2.599999999999990e+000	-3.316886e+000	4.503229e-004
2.649999999999990e+000	-3.316876e+000	4.503258e-004
2.699999999999990e+000	-3.316866e+000	4.503286e-004
2.749999999999989e+000	-3.316856e+000	4.503314e-004
2.799999999999989e+000	-3.316846e+000	4.503343e-004
2.849999999999989e+000	-3.316836e+000	4.503371e-004
2.899999999999989e+000	-3.316827e+000	4.503399e-004
2.949999999999989e+000	-3.316817e+000	4.503428e-004
2.999999999999989e+000	-3.316807e+000	4.503456e-004
3.049999999999988e+000	-3.316797e+000	4.503484e-004
3.099999999999988e+000	-3.316787e+000	4.503512e-004
3.149999999999988e+000	-3.316777e+000	4.503541e-004
3.199999999999988e+000	-3.316767e+000	4.503569e-004
3.249999999999988e+000	-3.316757e+000	4.503597e-004
3.299999999999987e+000	-3.316748e+000	4.503626e-004
3.349999999999987e+000	-3.316738e+000	4.503654e-004
3.399999999999987e+000	-3.316728e+000	4.503682e-004
3.449999999999987e+000	-3.316718e+000	4.503711e-004
3.499999999999987e+000	-3.316708e+000	4.503739e-004
3.549999999999987e+000	-3.316698e+000	4.503767e-004
3.599999999999986e+000	-3.316688e+000	4.503795e-004
3.649999999999986e+000	-3.316679e+000	4.503824e-004
3.699999999999986e+000	-3.316669e+000	4.503852e-004
3.749999999999986e+000	-3.316659e+000	4.503880e-004
3.799999999999986e+000	-3.316649e+000	4.503909e-004
3.849999999999985e+000	-3.316639e+000	4.503937e-004
3.899999999999985e+000	-3.316629e+000	4.503965e-004
3.949999999999985e+000	-3.316619e+000	4.503993e-004
3.999999999999985e+000	-3.316609e+000	4.504021e-004
4.049999999999985e+000	-3.316600e+000	4.504050e-004
4.099999999999985e+000	-3.316590e+000	4.504078e-004
4.149999999999984e+000	-3.316580e+000	4.504106e-004
4.199999999999984e+000	-3.316570e+000	4.504135e-004
4.249999999999984e+000	-3.316560e+000	4.504163e-004
4.299999999999984e+000	-3.316550e+000	4.504191e-004
4.349999999999984e+000	-3.316540e+000	4.504219e-004
4.399999999999984e+000	-3.316530e+000	4.504248e-004
4.449999999999983e+000	-3.316521e+000	4.504276e-004
4.499999999999983e+000	-3.316511e+000	4.504304e-004
4.549999999999983e+000	-3.316501e+000	4.504332e-004
4.599999999999983e+000	-3.316491e+000	4.504361e-004
4.649999999999983e+000	-3.316481e+000	4.504389e-004
4.699999999999982e+000	-3.316471e+000	4.504417e-004
4.749999999999982e+000	-3.316462e+000	4.504445e-004
4.799999999999982e+000	-3.316452e+000	4.504473e-004
4.849999999999982e+000	-3.316442e+000	4.504502e-004
4.899999999999982e+000	-3.316432e+000	4.504530e-004
4.949999999999982e+000	-3.316422e+000	4.504558e-004
5.000000000000000e+000	-3.316412e+000	4.504586e-004
